date Wed Apr 22 16:59:51 2020 
base hex  timestamps absolute 
no internal events logged
0.000000 0 353             Rx  d 8 87 05 DC 03 D0 F4 00 0E 
0.001000 0 351             Rx  d 8 0A 05 12 02 B2 00 01 3F 
0.002000 0 35C             Rx  d 8 06 B3 92 D0 00 00 02 86 
0.003000 0 35D             Rx  d 8 1A 10 91 A7 00 00 01 CD 
0.100000 0 353             Rx  d 8 25 35 DC 03 D0 F4 01 0D 
0.101000 0 351             Rx  d 8 0A 05 12 02 B2 0C 89 5C 
0.102000 0 35C             Rx  d 8 06 B3 96 7B 00 00 0A 36 
0.103000 0 35D             Rx  d 8 1A 10 97 5A 00 00 41 8E 
0.200000 0 353             Rx  d 8 21 25 DC 03 D0 F4 02 0D 
0.201000 0 351             Rx  d 8 0A 05 12 02 B2 19 11 5A 
0.202000 0 35C             Rx  d 8 06 B3 8F C4 00 00 12 79 
0.203000 0 35D             Rx  d 8 1A 10 9D 61 00 00 81 A3 
0.300000 0 353             Rx  d 8 23 55 DC 03 D0 F4 03 0E 
0.301000 0 351             Rx  d 8 0A 05 12 02 B2 25 99 77 
0.302000 0 35C             Rx  d 8 06 B3 8B 2D 00 00 19 DF 
0.303000 0 35D             Rx  d 8 1A 10 A5 90 00 00 C1 E2 
0.400000 0 353             Rx  d 8 2D 55 DC 03 D0 F4 00 0E 
0.401000 0 351             Rx  d 8 0A 05 12 02 B2 32 01 71 
0.402000 0 35C             Rx  d 8 06 B3 88 80 00 00 02 2C 
0.403000 0 35D             Rx  d 8 1A 10 A8 AE 00 00 01 EB 
0.500000 0 353             Rx  d 8 4D D5 DC 03 D0 F4 01 10 
0.501000 0 351             Rx  d 8 0A 05 12 02 B2 3E 89 8E 
0.502000 0 35C             Rx  d 8 06 B3 82 F1 00 00 0A 98 
0.503000 0 35D             Rx  d 8 1A 10 AA A1 00 00 41 E8 
0.600000 0 353             Rx  d 8 4F 65 DC 03 D0 F4 02 0F 
0.601000 0 351             Rx  d 8 0A 05 12 02 B2 4B 11 8C 
0.602000 0 35C             Rx  d 8 06 B3 7E 1D 00 00 11 C1 
0.603000 0 35D             Rx  d 8 1A 10 A4 48 00 00 81 91 
0.700000 0 353             Rx  d 8 26 C5 DC 03 D0 F4 03 0F 
0.701000 0 351             Rx  d 8 0A 05 12 02 B2 57 99 A9 
0.702000 0 35C             Rx  d 8 06 B3 76 8C 00 00 1A 29 
0.703000 0 35D             Rx  d 8 1A 10 97 25 00 00 C1 69 
0.800000 0 353             Rx  d 8 50 A5 DC 03 D0 F4 00 10 
0.801000 0 351             Rx  d 8 0A 05 12 02 B2 64 01 A3 
0.802000 0 35C             Rx  d 8 06 B3 75 65 00 00 01 FE 
0.803000 0 35D             Rx  d 8 1A 10 98 01 00 00 01 2E 
0.900000 0 353             Rx  d 8 50 A5 DC 03 D0 F4 01 10 
0.901000 0 351             Rx  d 8 0A 05 12 02 B2 70 89 C0 
0.902000 0 35C             Rx  d 8 06 B3 72 91 00 00 0A 28 
0.903000 0 35D             Rx  d 8 1A 10 91 8B 00 00 41 B9 
1.000000 0 353             Rx  d 8 50 F5 DC 03 D0 F4 02 11 
1.001000 0 351             Rx  d 8 0A 05 12 02 B3 00 11 42 
1.002000 0 35C             Rx  d 8 06 B3 6E 06 00 00 11 9A 
1.003000 0 35D             Rx  d 8 1A 10 86 C7 00 00 81 F2 
1.100000 0 353             Rx  d 8 51 95 DC 03 D0 F4 03 0F 
1.101000 0 351             Rx  d 8 0A 05 12 02 B3 0C 99 5F 
1.102000 0 35C             Rx  d 8 06 B3 6C C4 00 00 1A 57 
1.103000 0 35D             Rx  d 8 1A 10 83 73 00 00 C1 A3 
1.200000 0 353             Rx  d 8 2A 35 DC 03 D0 F4 00 0D 
1.201000 0 351             Rx  d 8 0A 05 12 02 B3 19 01 59 
1.202000 0 35C             Rx  d 8 06 B3 69 10 00 00 01 9D 
1.203000 0 35D             Rx  d 8 1A 10 77 63 00 00 01 6F 
1.300000 0 353             Rx  d 8 89 35 DC 03 D0 F4 01 0F 
1.301000 0 351             Rx  d 8 0A 05 12 02 B3 25 89 76 
1.302000 0 35C             Rx  d 8 06 B3 65 54 00 00 09 DE 
1.303000 0 35D             Rx  d 8 1A 10 79 39 00 00 41 4F 
1.400000 0 353             Rx  d 8 88 95 DC 03 D0 F4 02 10 
1.401000 0 351             Rx  d 8 0A 05 12 02 B3 32 11 74 
1.402000 0 35C             Rx  d 8 06 B3 6B 3F 00 00 11 D0 
1.403000 0 35D             Rx  d 8 1A 10 87 F7 00 00 82 23 
1.500000 0 353             Rx  d 8 88 95 DC 03 D0 F4 03 10 
1.501000 0 351             Rx  d 8 0A 05 12 02 B3 3E 99 91 
1.502000 0 35C             Rx  d 8 06 B3 6F 29 00 00 19 BF 
1.503000 0 35D             Rx  d 8 1A 10 90 5C 00 00 C1 99 
1.600000 0 353             Rx  d 8 88 45 DC 03 D0 F4 00 0F 
1.601000 0 351             Rx  d 8 0A 05 12 02 B3 4B 01 8B 
1.602000 0 35C             Rx  d 8 06 B3 73 26 00 00 01 BD 
1.603000 0 35D             Rx  d 8 1A 10 99 31 00 00 01 5F 
1.700000 0 353             Rx  d 8 88 45 DC 03 D0 F4 01 0F 
1.701000 0 351             Rx  d 8 0A 05 12 02 B3 57 89 A8 
1.702000 0 35C             Rx  d 8 06 B3 74 A2 00 00 0A 3B 
1.703000 0 35D             Rx  d 8 1A 10 9C 19 00 00 41 52 
1.800000 0 353             Rx  d 8 87 05 DC 03 D0 F4 02 0E 
1.801000 0 351             Rx  d 8 0A 05 12 02 B3 64 11 A6 
1.802000 0 35C             Rx  d 8 06 B3 77 14 00 00 11 B1 
1.803000 0 35D             Rx  d 8 1A 10 A0 D6 00 00 82 1B 
1.900000 0 353             Rx  d 8 87 55 DC 03 D0 F4 03 0F 
1.901000 0 351             Rx  d 8 0A 05 12 02 B3 70 99 C3 
1.902000 0 35C             Rx  d 8 06 B3 80 FD 00 00 1A A4 
1.903000 0 35D             Rx  d 8 1A 10 AF CB 00 00 C2 27 
2.000000 0 353             Rx  d 8 87 F5 DC 03 D0 F4 00 12 
2.001000 0 351             Rx  d 8 0A 05 12 02 B4 00 01 41 
2.002000 0 35C             Rx  d 8 06 B3 86 24 00 00 01 CE 
2.003000 0 35D             Rx  d 8 1A 10 B8 30 00 00 01 7D 
2.100000 0 353             Rx  d 8 8B 65 DC 03 D0 F4 01 0F 
2.101000 0 351             Rx  d 8 0A 05 12 02 B4 0C 89 5E 
2.102000 0 35C             Rx  d 8 06 B3 89 59 00 00 0A 07 
2.103000 0 35D             Rx  d 8 1A 10 BE 1D 00 00 41 78 
2.200000 0 353             Rx  d 8 1D B5 DC 03 D0 F4 02 0F 
2.201000 0 351             Rx  d 8 0A 05 12 02 B4 19 11 5C 
2.202000 0 35C             Rx  d 8 06 B3 89 CE 00 00 12 7D 
2.203000 0 35D             Rx  d 8 1A 10 C1 1E 00 00 81 84 
2.300000 0 353             Rx  d 8 87 55 DC 03 D0 F4 03 0F 
2.301000 0 351             Rx  d 8 0A 05 12 02 B4 25 99 79 
2.302000 0 35C             Rx  d 8 06 B3 89 8B 00 00 1A 3B 
2.303000 0 35D             Rx  d 8 1A 10 C2 A1 00 00 C2 10 
2.400000 0 353             Rx  d 8 87 A5 DC 03 D0 F4 00 10 
2.401000 0 351             Rx  d 8 0A 05 12 02 B4 32 01 73 
2.402000 0 35C             Rx  d 8 06 B3 8A 14 00 00 01 C2 
2.403000 0 35D             Rx  d 8 1A 10 C3 7D 00 00 01 D5 
2.500000 0 353             Rx  d 8 87 A5 DC 03 D0 F4 01 10 
2.501000 0 351             Rx  d 8 0A 05 12 02 B4 3E 89 90 
2.502000 0 35C             Rx  d 8 06 B3 8F D8 00 00 0A 8C 
2.503000 0 35D             Rx  d 8 1A 10 CD 48 00 00 41 B2 
2.600000 0 353             Rx  d 8 87 A5 DC 03 D0 F4 02 10 
2.601000 0 351             Rx  d 8 0A 05 12 02 B4 4B 11 8E 
2.602000 0 35C             Rx  d 8 06 B3 91 70 00 00 12 27 
2.603000 0 35D             Rx  d 8 1A 10 D0 17 00 00 81 8C 
2.700000 0 353             Rx  d 8 87 F5 DC 03 D0 F4 03 12 
2.701000 0 351             Rx  d 8 0A 05 12 02 B4 57 99 AB 
2.702000 0 35C             Rx  d 8 06 B3 92 DD 00 00 1A 96 
2.703000 0 35D             Rx  d 8 1A 10 D2 8F 00 00 C2 0E 
2.800000 0 353             Rx  d 8 87 F5 DC 03 D0 F4 00 12 
2.801000 0 351             Rx  d 8 0A 05 12 02 B4 64 01 A5 
2.802000 0 35C             Rx  d 8 06 B3 95 BF 00 00 02 78 
2.803000 0 35D             Rx  d 8 1A 10 D8 0C 00 00 01 79 
2.900000 0 353             Rx  d 8 8B 65 DC 03 D0 F4 01 0F 
2.901000 0 351             Rx  d 8 0A 05 12 02 B4 70 89 C2 
2.902000 0 35C             Rx  d 8 06 B3 97 F4 00 00 0A B0 
2.903000 0 35D             Rx  d 8 1A 10 DC 40 00 00 41 B9 
3.000000 0 353             Rx  d 8 88 45 DC 03 D0 F4 02 0F 
3.001000 0 351             Rx  d 8 0A 05 12 02 B5 00 11 44 
3.002000 0 35C             Rx  d 8 06 B3 98 41 00 00 11 FF 
3.003000 0 35D             Rx  d 8 1A 10 DE 4C 00 00 81 CF 
3.100000 0 353             Rx  d 8 88 95 DC 03 D0 F4 03 10 
3.101000 0 351             Rx  d 8 0A 05 12 02 B5 0C 99 61 
3.102000 0 35C             Rx  d 8 06 B3 9B 7D 00 00 1A 3F 
3.103000 0 35D             Rx  d 8 1A 10 E4 A5 00 00 C2 36 
3.200000 0 353             Rx  d 8 88 E5 DC 03 D0 F4 00 11 
3.201000 0 351             Rx  d 8 0A 05 12 02 B5 19 01 5B 
3.202000 0 35C             Rx  d 8 06 B3 A0 D6 00 00 02 9A 
3.203000 0 35D             Rx  d 8 1A 10 F0 29 00 00 01 AE 
3.300000 0 353             Rx  d 8 89 35 DC 03 D0 F4 01 0F 
3.301000 0 351             Rx  d 8 0A 05 12 02 B5 25 89 78 
3.302000 0 35C             Rx  d 8 06 B3 A5 EE 00 00 0A B8 
3.303000 0 35D             Rx  d 8 1A 10 FB CA 00 00 42 62 
3.400000 0 353             Rx  d 8 7F 85 DC 03 D0 F4 02 10 
3.401000 0 351             Rx  d 8 0A 05 12 02 B5 32 11 76 
3.402000 0 35C             Rx  d 8 06 B3 A8 94 00 00 12 62 
3.403000 0 35D             Rx  d 8 1A 11 02 C9 00 00 81 71 
3.500000 0 353             Rx  d 8 8B 15 DC 03 D0 F4 03 0E 
3.501000 0 351             Rx  d 8 0A 05 12 02 B5 3E 99 93 
3.502000 0 35C             Rx  d 8 06 B3 AA 4C 00 00 1A 1D 
3.503000 0 35D             Rx  d 8 1A 11 03 C2 00 00 C1 73 
3.600000 0 353             Rx  d 8 8B 15 DC 03 D0 F4 00 0E 
3.601000 0 351             Rx  d 8 0A 05 12 02 B5 4B 01 8D 
3.602000 0 35C             Rx  d 8 06 B3 AA F4 00 00 02 C2 
3.603000 0 35D             Rx  d 8 1A 11 07 6A 00 00 01 07 
3.700000 0 353             Rx  d 8 8A C5 DC 03 D0 F4 01 11 
3.701000 0 351             Rx  d 8 0A 05 12 02 B5 57 89 AA 
3.702000 0 35C             Rx  d 8 06 B3 AC 74 00 00 0A 45 
3.703000 0 35D             Rx  d 8 1A 11 0F 80 00 00 41 2D 
3.800000 0 353             Rx  d 8 8B 65 DC 03 D0 F4 02 0F 
3.801000 0 351             Rx  d 8 0A 05 12 02 B5 64 11 A8 
3.802000 0 35C             Rx  d 8 06 B3 AE 01 00 00 11 D5 
3.803000 0 35D             Rx  d 8 1A 11 16 7C 00 00 81 38 
3.900000 0 353             Rx  d 8 1C 25 DC 03 D0 F4 03 0D 
3.901000 0 351             Rx  d 8 0A 05 12 02 B5 70 99 C5 
3.902000 0 35C             Rx  d 8 06 B3 AE E2 00 00 1A B7 
3.903000 0 35D             Rx  d 8 1A 11 1D 2C 00 00 C0 F7 
4.000000 0 353             Rx  d 8 1C 75 DC 03 D0 F4 00 0E 
4.001000 0 351             Rx  d 8 0A 05 12 02 B6 00 01 43 
4.002000 0 35C             Rx  d 8 06 B3 AE D0 00 00 02 A2 
4.003000 0 35D             Rx  d 8 1A 11 22 C3 00 00 01 7B 
4.100000 0 353             Rx  d 8 1D 65 DC 03 D0 F4 01 0E 
4.101000 0 351             Rx  d 8 0A 05 12 02 B6 0C 89 60 
4.102000 0 35C             Rx  d 8 06 B3 AE B5 00 00 0A 88 
4.103000 0 35D             Rx  d 8 1A 11 25 05 00 00 40 C8 
4.200000 0 353             Rx  d 8 1D 65 DC 03 D0 F4 02 0E 
4.201000 0 351             Rx  d 8 0A 05 12 02 B6 19 11 5E 
4.202000 0 35C             Rx  d 8 06 B3 AD 74 00 00 12 47 
4.203000 0 35D             Rx  d 8 1A 11 2D 34 00 00 81 07 
4.300000 0 353             Rx  d 8 1E A5 DC 03 D0 F4 03 0F 
4.301000 0 351             Rx  d 8 0A 05 12 02 B6 25 99 7B 
4.302000 0 35C             Rx  d 8 06 B3 AC A4 00 00 1A 77 
4.303000 0 35D             Rx  d 8 1A 11 33 58 00 00 C1 39 
4.400000 0 353             Rx  d 8 1E 55 DC 03 D0 F4 00 0E 
4.401000 0 351             Rx  d 8 0A 05 12 02 B6 32 01 75 
4.402000 0 35C             Rx  d 8 06 B3 AB 0B 00 00 01 DA 
4.403000 0 35D             Rx  d 8 1A 11 39 5F 00 00 01 2E 
4.500000 0 353             Rx  d 8 1D 15 DC 03 D0 F4 01 0C 
4.501000 0 351             Rx  d 8 0A 05 12 02 B6 3E 89 92 
4.502000 0 35C             Rx  d 8 06 B3 AA D5 00 00 0A A4 
4.503000 0 35D             Rx  d 8 1A 11 3A 3B 00 00 41 13 
4.600000 0 353             Rx  d 8 8C 55 DC 03 D0 F4 02 0F 
4.601000 0 351             Rx  d 8 0A 05 12 02 B6 4B 11 90 
4.602000 0 35C             Rx  d 8 06 B3 A9 F8 00 00 12 C7 
4.603000 0 35D             Rx  d 8 1A 11 41 75 00 00 81 5C 
4.700000 0 353             Rx  d 8 8B 65 DC 03 D0 F4 03 0F 
4.701000 0 351             Rx  d 8 0A 05 12 02 B6 57 99 AD 
4.702000 0 35C             Rx  d 8 06 B3 AA 52 00 00 1A 23 
4.703000 0 35D             Rx  d 8 1A 11 4A 9A 00 00 C1 92 
4.800000 0 353             Rx  d 8 8A C5 DC 03 D0 F4 00 11 
4.801000 0 351             Rx  d 8 0A 05 12 02 B6 64 01 A7 
4.802000 0 35C             Rx  d 8 06 B3 AA E5 00 00 02 B3 
4.803000 0 35D             Rx  d 8 1A 11 4F 04 00 00 00 E9 
4.900000 0 353             Rx  d 8 8A 25 DC 03 D0 F4 01 0E 
4.901000 0 351             Rx  d 8 0A 05 12 02 B6 70 89 C4 
4.902000 0 35C             Rx  d 8 06 B3 AB 70 00 00 0A 40 
4.903000 0 35D             Rx  d 8 1A 11 51 7D 00 00 41 6C 
5.000000 0 353             Rx  d 8 89 85 DC 03 D0 F4 02 10 
5.001000 0 351             Rx  d 8 0A 05 12 02 B7 00 11 46 
5.002000 0 35C             Rx  d 8 06 B3 AC FC 00 00 12 CE 
5.003000 0 35D             Rx  d 8 1A 11 56 E1 00 00 81 DD 
5.100000 0 353             Rx  d 8 88 45 DC 03 D0 F4 03 0F 
5.101000 0 351             Rx  d 8 0A 05 12 02 B7 0C 99 63 
5.102000 0 35C             Rx  d 8 06 B3 AF 7E 00 00 1A 54 
5.103000 0 35D             Rx  d 8 1A 11 5D E1 00 00 C1 EC 
5.200000 0 353             Rx  d 8 88 95 DC 03 D0 F4 00 10 
5.201000 0 351             Rx  d 8 0A 05 12 02 B7 19 01 5D 
5.202000 0 35C             Rx  d 8 06 B3 B0 EC 00 00 02 C0 
5.203000 0 35D             Rx  d 8 1A 11 60 E2 00 00 01 D8 
5.300000 0 353             Rx  d 8 87 A5 DC 03 D0 F4 01 10 
5.301000 0 351             Rx  d 8 0A 05 12 02 B7 25 89 7A 
5.302000 0 35C             Rx  d 8 06 B3 B2 15 00 00 09 EC 
5.303000 0 35D             Rx  d 8 1A 11 63 5E 00 00 41 5F 
5.400000 0 353             Rx  d 8 87 55 DC 03 D0 F4 02 0F 
5.401000 0 351             Rx  d 8 0A 05 12 02 B7 32 11 78 
5.402000 0 35C             Rx  d 8 06 B3 B8 57 00 00 12 35 
5.403000 0 35D             Rx  d 8 1A 11 6E 59 00 00 81 6D 
5.500000 0 353             Rx  d 8 87 55 DC 03 D0 F4 03 0F 
5.501000 0 351             Rx  d 8 0A 05 12 02 B7 3E 99 95 
5.502000 0 35C             Rx  d 8 06 B3 C4 58 00 00 1A 43 
5.503000 0 35D             Rx  d 8 1A 11 82 99 00 00 C1 C9 
5.600000 0 353             Rx  d 8 86 65 DC 03 D0 F4 00 0F 
5.601000 0 351             Rx  d 8 0A 05 12 02 B7 4B 01 8F 
5.602000 0 35C             Rx  d 8 06 B3 C8 FF 00 00 02 EB 
5.603000 0 35D             Rx  d 8 1A 11 8A 71 00 00 01 91 
5.700000 0 353             Rx  d 8 85 75 DC 03 D0 F4 01 10 
5.701000 0 351             Rx  d 8 0A 05 12 02 B7 57 89 AC 
5.702000 0 35C             Rx  d 8 06 B3 CE 0D 00 00 0A 00 
5.703000 0 35D             Rx  d 8 1A 11 91 AB 00 00 41 DA 
5.800000 0 353             Rx  d 8 85 25 DC 03 D0 F4 02 0E 
5.801000 0 351             Rx  d 8 0A 05 12 02 B7 64 11 AA 
5.802000 0 35C             Rx  d 8 06 B3 DA 06 00 00 12 06 
5.803000 0 35D             Rx  d 8 1A 11 9F E1 00 00 82 26 
5.900000 0 353             Rx  d 8 85 75 DC 03 D0 F4 03 10 
5.901000 0 351             Rx  d 8 0A 05 12 02 B7 70 99 C7 
5.902000 0 35C             Rx  d 8 06 B3 DE 71 00 00 1A 76 
5.903000 0 35D             Rx  d 8 1A 11 A4 EE 00 00 C2 40 
6.000000 0 353             Rx  d 8 85 25 DC 03 D0 F4 00 0E 
6.001000 0 351             Rx  d 8 0A 05 12 02 B8 00 01 45 
6.002000 0 35C             Rx  d 8 06 B3 E4 EE 00 00 02 F6 
6.003000 0 35D             Rx  d 8 1A 11 AC CB 00 00 02 0D 
6.100000 0 353             Rx  d 8 85 25 DC 03 D0 F4 01 0E 
6.101000 0 351             Rx  d 8 0A 05 12 02 B8 0C 89 62 
6.102000 0 35C             Rx  d 8 06 B3 F3 F2 00 00 0B 0A 
6.103000 0 35D             Rx  d 8 1A 11 BE 1C 00 00 41 78 
6.200000 0 353             Rx  d 8 86 15 DC 03 D0 F4 02 0E 
6.201000 0 351             Rx  d 8 0A 05 12 02 B8 19 11 60 
6.202000 0 35C             Rx  d 8 06 B3 F6 C2 00 00 12 DE 
6.203000 0 35D             Rx  d 8 1A 11 C1 5A 00 00 81 C1 
6.300000 0 353             Rx  d 8 87 A5 DC 03 D0 F4 03 10 
6.301000 0 351             Rx  d 8 0A 05 12 02 B8 25 99 7D 
6.302000 0 35C             Rx  d 8 06 B3 FD F8 00 00 1B 1C 
6.303000 0 35D             Rx  d 8 1A 11 CB 0C 00 00 C1 85 
6.400000 0 353             Rx  d 8 88 95 DC 03 D0 F4 00 10 
6.401000 0 351             Rx  d 8 0A 05 12 02 B8 32 01 77 
6.402000 0 35C             Rx  d 8 06 B4 01 A5 00 00 01 CB 
6.403000 0 35D             Rx  d 8 1A 11 D1 B9 00 00 02 20 
6.500000 0 353             Rx  d 8 88 E5 DC 03 D0 F4 01 11 
6.501000 0 351             Rx  d 8 0A 05 12 02 B8 3E 89 94 
6.502000 0 35C             Rx  d 8 06 B4 0A BA 00 00 09 EA 
6.503000 0 35D             Rx  d 8 1A 11 E5 F6 00 00 42 79 
6.600000 0 353             Rx  d 8 8A 25 DC 03 D0 F4 02 0E 
6.601000 0 351             Rx  d 8 0A 05 12 02 B8 4B 11 92 
6.602000 0 35C             Rx  d 8 06 B4 0D B4 00 00 11 E8 
6.603000 0 35D             Rx  d 8 1A 11 ED 49 00 00 81 DC 
6.700000 0 353             Rx  d 8 8A 75 DC 03 D0 F4 03 10 
6.701000 0 351             Rx  d 8 0A 05 12 02 B8 57 99 AF 
6.702000 0 35C             Rx  d 8 06 B4 0E 99 00 00 19 CF 
6.703000 0 35D             Rx  d 8 1A 11 F0 84 00 00 C2 22 
6.800000 0 353             Rx  d 8 8C 55 DC 03 D0 F4 00 0F 
6.801000 0 351             Rx  d 8 0A 05 12 02 B8 64 01 A9 
6.802000 0 35C             Rx  d 8 06 B4 10 F6 00 00 02 2B 
6.803000 0 35D             Rx  d 8 1A 11 FA 6D 00 00 01 FD 
6.900000 0 353             Rx  d 8 1C C5 DC 03 D0 F4 01 0F 
6.901000 0 351             Rx  d 8 0A 05 12 02 B8 70 89 C6 
6.902000 0 35C             Rx  d 8 06 B4 11 28 00 00 09 5F 
6.903000 0 35D             Rx  d 8 1A 11 FE 9E 00 00 42 3A 
7.000000 0 353             Rx  d 8 1D 65 DC 03 D0 F4 02 0E 
7.001000 0 351             Rx  d 8 0A 05 12 02 B9 00 11 48 
7.002000 0 35C             Rx  d 8 06 B4 10 FB 00 00 12 32 
7.003000 0 35D             Rx  d 8 1A 12 01 D9 00 00 81 81 
7.100000 0 353             Rx  d 8 1F 45 DC 03 D0 F4 03 0D 
7.101000 0 351             Rx  d 8 0A 05 12 02 B9 0C 99 65 
7.102000 0 35C             Rx  d 8 06 B4 10 B2 00 00 19 EA 
7.103000 0 35D             Rx  d 8 1A 12 04 02 00 00 C0 B5 
7.200000 0 353             Rx  d 8 20 85 DC 03 D0 F4 00 0E 
7.201000 0 351             Rx  d 8 0A 05 12 02 B9 19 01 5F 
7.202000 0 35C             Rx  d 8 06 B4 10 06 00 00 01 3B 
7.203000 0 35D             Rx  d 8 1A 12 05 F1 00 00 01 8D 
7.300000 0 353             Rx  d 8 1F 45 DC 03 D0 F4 01 0D 
7.301000 0 351             Rx  d 8 0A 05 12 02 B9 25 89 7C 
7.302000 0 35C             Rx  d 8 06 B4 0E CF 00 00 0A 03 
7.303000 0 35D             Rx  d 8 1A 12 08 86 00 00 41 2D 
7.400000 0 353             Rx  d 8 1F E5 DC 03 D0 F4 02 10 
7.401000 0 351             Rx  d 8 0A 05 12 02 B9 32 11 7A 
7.402000 0 35C             Rx  d 8 06 B4 0D 0E 00 00 11 42 
7.403000 0 35D             Rx  d 8 1A 12 0D CE 00 00 81 82 
7.500000 0 353             Rx  d 8 1F E5 DC 03 D0 F4 03 10 
7.501000 0 351             Rx  d 8 0A 05 12 02 B9 3E 99 97 
7.502000 0 35C             Rx  d 8 06 B4 04 2F 00 00 19 5B 
7.503000 0 35D             Rx  d 8 1A 12 24 22 00 00 C0 F5 
7.600000 0 353             Rx  d 8 1F 45 DC 03 D0 F4 00 0D 
7.601000 0 351             Rx  d 8 0A 05 12 02 B9 4B 01 91 
7.602000 0 35C             Rx  d 8 06 B4 03 43 00 00 01 6B 
7.603000 0 35D             Rx  d 8 1A 12 26 76 00 00 01 33 
7.700000 0 353             Rx  d 8 1E F5 DC 03 D0 F4 01 10 
7.701000 0 351             Rx  d 8 0A 05 12 02 B9 57 89 AE 
7.702000 0 35C             Rx  d 8 06 B3 FF C0 00 00 0A E4 
7.703000 0 35D             Rx  d 8 1A 12 30 CE 00 00 41 9D 
7.800000 0 353             Rx  d 8 1F E5 DC 03 D0 F4 02 10 
7.801000 0 351             Rx  d 8 0A 05 12 02 B9 64 11 AC 
7.802000 0 35C             Rx  d 8 06 B3 FF 60 00 00 12 85 
7.803000 0 35D             Rx  d 8 1A 12 31 FE 00 00 81 D6 
7.900000 0 353             Rx  d 8 1F 95 DC 03 D0 F4 03 0F 
7.901000 0 351             Rx  d 8 0A 05 12 02 B9 70 99 C9 
7.902000 0 35C             Rx  d 8 06 B3 FD 32 00 00 1A 56 
7.903000 0 35D             Rx  d 8 1A 12 37 45 00 00 C1 2B 
8.000000 0 353             Rx  d 8 1F 45 DC 03 D0 F4 00 0D 
8.001000 0 351             Rx  d 8 0A 05 12 02 BA 00 01 47 
8.002000 0 35C             Rx  d 8 06 B3 F9 BD 00 00 02 DA 
8.003000 0 35D             Rx  d 8 1A 12 40 BD 00 00 01 94 
8.100000 0 353             Rx  d 8 1F 45 DC 03 D0 F4 01 0D 
8.101000 0 351             Rx  d 8 0A 05 12 02 BA 0C 89 64 
8.102000 0 35C             Rx  d 8 06 B3 F2 30 00 00 0A 47 
8.103000 0 35D             Rx  d 8 1A 12 57 23 00 00 41 19 
8.200000 0 353             Rx  d 8 1E F5 DC 03 D0 F4 02 10 
8.201000 0 351             Rx  d 8 0A 05 12 02 BA 19 11 62 
8.202000 0 35C             Rx  d 8 06 B3 ED AD 00 00 12 C0 
8.203000 0 35D             Rx  d 8 1A 12 65 23 00 00 81 2F 
8.300000 0 353             Rx  d 8 1F 45 DC 03 D0 F4 03 0D 
8.301000 0 351             Rx  d 8 0A 05 12 02 BA 25 99 7F 
8.302000 0 35C             Rx  d 8 06 B3 ED 4C 00 00 1A 60 
8.303000 0 35D             Rx  d 8 1A 12 66 53 00 00 C1 68 
8.400000 0 353             Rx  d 8 1E F5 DC 03 D0 F4 00 10 
8.401000 0 351             Rx  d 8 0A 05 12 02 BA 32 01 79 
8.402000 0 35C             Rx  d 8 06 B3 EA 55 00 00 02 63 
8.403000 0 35D             Rx  d 8 1A 12 6F 78 00 00 01 7E 
8.500000 0 353             Rx  d 8 1F 45 DC 03 D0 F4 01 0D 
8.501000 0 351             Rx  d 8 0A 05 12 02 BA 3E 89 96 
8.502000 0 35C             Rx  d 8 06 B3 E9 BF 00 00 0A CD 
8.503000 0 35D             Rx  d 8 1A 12 71 67 00 00 41 77 
8.600000 0 353             Rx  d 8 1E A5 DC 03 D0 F4 02 0F 
8.601000 0 351             Rx  d 8 0A 05 12 02 BA 4B 11 94 
8.602000 0 35C             Rx  d 8 06 B3 E8 65 00 00 12 73 
8.603000 0 35D             Rx  d 8 1A 12 75 66 00 00 81 82 
8.700000 0 353             Rx  d 8 1E F5 DC 03 D0 F4 03 10 
8.701000 0 351             Rx  d 8 0A 05 12 02 BA 57 99 B1 
8.702000 0 35C             Rx  d 8 06 B3 E6 D3 00 00 1A E0 
8.703000 0 35D             Rx  d 8 1A 12 7B 4F 00 00 C1 79 
8.800000 0 353             Rx  d 8 1E F5 DC 03 D0 F4 00 10 
8.801000 0 351             Rx  d 8 0A 05 12 02 BA 64 01 AB 
8.802000 0 35C             Rx  d 8 06 B3 E3 06 00 00 02 0D 
8.803000 0 35D             Rx  d 8 1A 12 87 B4 00 00 01 D2 
8.900000 0 353             Rx  d 8 1E F5 DC 03 D0 F4 01 10 
8.901000 0 351             Rx  d 8 0A 05 12 02 BA 70 89 C8 
8.902000 0 35C             Rx  d 8 06 B3 E1 70 00 00 0A 76 
8.903000 0 35D             Rx  d 8 1A 12 8D 14 00 00 41 40 
9.000000 0 353             Rx  d 8 1E F5 DC 03 D0 F4 02 10 
9.001000 0 351             Rx  d 8 0A 05 12 02 BB 00 11 4A 
9.002000 0 35C             Rx  d 8 06 B3 DF 7A 00 00 12 7F 
9.003000 0 35D             Rx  d 8 1A 12 93 C1 00 00 81 FB 
9.100000 0 353             Rx  d 8 1E A5 DC 03 D0 F4 03 0F 
9.101000 0 351             Rx  d 8 0A 05 12 02 BB 0C 99 67 
9.102000 0 35C             Rx  d 8 06 B3 DA CD 00 00 1A CE 
9.103000 0 35D             Rx  d 8 1A 12 A3 97 00 00 C1 E9 
9.200000 0 353             Rx  d 8 1E F5 DC 03 D0 F4 00 10 
9.201000 0 351             Rx  d 8 0A 05 12 02 BB 19 01 61 
9.202000 0 35C             Rx  d 8 06 B3 D8 3A 00 00 02 36 
9.203000 0 35D             Rx  d 8 1A 12 AC D9 00 00 02 1C 
9.300000 0 353             Rx  d 8 1F 45 DC 03 D0 F4 01 0D 
9.301000 0 351             Rx  d 8 0A 05 12 02 BB 25 89 7E 
9.302000 0 35C             Rx  d 8 06 B3 D7 7D 00 00 0A 79 
9.303000 0 35D             Rx  d 8 1A 12 AF 6E 00 00 41 BC 
9.400000 0 353             Rx  d 8 1F 45 DC 03 D0 F4 02 0D 
9.401000 0 351             Rx  d 8 0A 05 12 02 BB 32 11 7C 
9.402000 0 35C             Rx  d 8 06 B3 D1 43 00 00 12 3A 
9.403000 0 35D             Rx  d 8 1A 12 C2 45 00 00 81 AE 
9.500000 0 353             Rx  d 8 1F 45 DC 03 D0 F4 03 0D 
9.501000 0 351             Rx  d 8 0A 05 12 02 BB 3E 99 99 
9.502000 0 35C             Rx  d 8 06 B3 CA AB 00 00 1A 9C 
9.503000 0 35D             Rx  d 8 1A 12 D5 39 00 00 C1 BD 
9.600000 0 353             Rx  d 8 1F 45 DC 03 D0 F4 00 0D 
9.601000 0 351             Rx  d 8 0A 05 12 02 BB 4B 01 93 
9.602000 0 35C             Rx  d 8 06 B3 C4 45 00 00 02 2D 
9.603000 0 35D             Rx  d 8 1A 12 E7 A0 00 00 02 1E 
9.700000 0 353             Rx  d 8 1F 45 DC 03 D0 F4 01 0D 
9.701000 0 351             Rx  d 8 0A 05 12 02 BB 57 89 B0 
9.702000 0 35C             Rx  d 8 06 B3 BF 8E 00 00 0A 72 
9.703000 0 35D             Rx  d 8 1A 12 F5 4D 00 00 41 E1 
9.800000 0 353             Rx  d 8 1F 95 DC 03 D0 F4 02 0F 
9.801000 0 351             Rx  d 8 0A 05 12 02 BB 64 11 AE 
9.802000 0 35C             Rx  d 8 06 B3 BC 93 00 00 12 75 
9.803000 0 35D             Rx  d 8 1A 12 FD EC 00 00 82 90 
9.900000 0 353             Rx  d 8 1F 45 DC 03 D0 F4 03 0D 
9.901000 0 351             Rx  d 8 0A 05 12 02 BB 70 99 CB 
9.902000 0 35C             Rx  d 8 06 B3 B5 B6 00 00 1A 92 
9.903000 0 35D             Rx  d 8 1A 13 11 69 00 00 C1 2A 
10.000000 0 353             Rx  d 8 1F 95 DC 03 D0 F4 00 0F 
10.001000 0 351             Rx  d 8 0A 05 12 03 00 00 00 8E 
10.002000 0 35C             Rx  d 8 06 B3 AF AD 00 00 02 80 
10.003000 0 35D             Rx  d 8 1A 13 23 10 00 00 00 CB 
10.100000 0 353             Rx  d 8 1F 95 DC 03 D0 F4 01 0F 
10.101000 0 351             Rx  d 8 0A 05 12 03 00 0C 88 AB 
10.102000 0 35C             Rx  d 8 06 B3 AF 1E 00 00 09 F2 
10.103000 0 35D             Rx  d 8 1A 13 24 AC 00 00 41 70 
10.200000 0 353             Rx  d 8 1F 95 DC 03 D0 F4 02 0F 
10.201000 0 351             Rx  d 8 0A 05 12 03 00 19 10 A9 
10.202000 0 35C             Rx  d 8 06 B3 A7 3C 00 00 12 09 
10.203000 0 35D             Rx  d 8 1A 13 3B 7F 00 00 81 62 
10.300000 0 353             Rx  d 8 1F 95 DC 03 D0 F4 03 0F 
10.301000 0 351             Rx  d 8 0A 05 12 03 00 25 98 C6 
10.302000 0 35C             Rx  d 8 06 B3 A6 27 00 00 19 F4 
10.303000 0 35D             Rx  d 8 1A 13 3E 9F 00 00 C1 8D 
10.400000 0 353             Rx  d 8 1F E5 DC 03 D0 F4 00 10 
10.401000 0 351             Rx  d 8 0A 05 12 03 00 32 00 C0 
10.402000 0 35C             Rx  d 8 06 B3 A4 3E 00 00 02 06 
10.403000 0 35D             Rx  d 8 1A 13 44 1C 00 00 00 F8 
10.500000 0 353             Rx  d 8 20 35 DC 03 D0 F4 01 0D 
10.501000 0 351             Rx  d 8 0A 05 12 03 00 3E 88 DD 
10.502000 0 35C             Rx  d 8 06 B3 9F DF 00 00 0A A3 
10.503000 0 35D             Rx  d 8 1A 13 4E E0 00 00 41 CE 
10.600000 0 353             Rx  d 8 1F E5 DC 03 D0 F4 02 10 
10.601000 0 351             Rx  d 8 0A 05 12 03 00 4B 10 DB 
10.602000 0 35C             Rx  d 8 06 B3 9C 69 00 00 12 2B 
10.603000 0 35D             Rx  d 8 1A 13 56 F2 00 00 81 F0 
10.700000 0 353             Rx  d 8 20 D5 DC 03 D0 F4 03 10 
10.701000 0 351             Rx  d 8 0A 05 12 03 00 57 98 F8 
10.702000 0 35C             Rx  d 8 06 B3 9A 78 00 00 1A 39 
10.703000 0 35D             Rx  d 8 1A 13 5B B0 00 00 C1 BB 
10.800000 0 353             Rx  d 8 21 75 DC 03 D0 F4 00 0E 
10.801000 0 351             Rx  d 8 0A 05 12 03 00 64 00 F2 
10.802000 0 35C             Rx  d 8 06 B3 97 24 00 00 01 DF 
10.803000 0 35D             Rx  d 8 1A 13 62 79 00 00 01 73 
10.900000 0 353             Rx  d 8 21 75 DC 03 D0 F4 01 0E 
10.901000 0 351             Rx  d 8 0A 05 12 03 00 70 89 0F 
10.902000 0 35C             Rx  d 8 06 B3 8B 52 00 00 0A 02 
10.903000 0 35D             Rx  d 8 1A 13 76 DF 00 00 41 F5 
11.000000 0 353             Rx  d 8 21 C5 DC 03 D0 F4 02 0F 
11.001000 0 351             Rx  d 8 0A 05 12 03 01 00 10 91 
11.002000 0 35C             Rx  d 8 06 B3 85 2D 00 00 11 D8 
11.003000 0 35D             Rx  d 8 1A 13 81 79 00 00 81 A2 
11.100000 0 353             Rx  d 8 21 25 DC 03 D0 F4 03 0D 
11.101000 0 351             Rx  d 8 0A 05 12 03 01 0C 98 AE 
11.102000 0 35C             Rx  d 8 06 B3 7C 43 00 00 19 E6 
11.103000 0 35D             Rx  d 8 1A 13 90 1B 00 00 C1 5B 
11.200000 0 353             Rx  d 8 20 D5 DC 03 D0 F4 00 10 
11.201000 0 351             Rx  d 8 0A 05 12 03 01 19 00 A8 
11.202000 0 35C             Rx  d 8 06 B3 76 87 00 00 02 21 
11.203000 0 35D             Rx  d 8 1A 13 9A A8 00 00 01 DA 
11.300000 0 353             Rx  d 8 22 15 DC 03 D0 F4 01 0D 
11.301000 0 351             Rx  d 8 0A 05 12 03 01 25 88 C5 
11.302000 0 35C             Rx  d 8 06 B3 74 4A 00 00 09 E3 
11.303000 0 35D             Rx  d 8 1A 13 9F 30 00 00 41 6F 
11.400000 0 353             Rx  d 8 21 75 DC 03 D0 F4 02 0E 
11.401000 0 351             Rx  d 8 0A 05 12 03 01 32 10 C3 
11.402000 0 35C             Rx  d 8 06 B3 70 6A 00 00 12 00 
11.403000 0 35D             Rx  d 8 1A 13 A5 6C 00 00 81 B9 
11.500000 0 353             Rx  d 8 21 75 DC 03 D0 F4 03 0E 
11.501000 0 351             Rx  d 8 0A 05 12 03 01 3E 98 E0 
11.502000 0 35C             Rx  d 8 06 B3 6B 0E 00 00 19 A0 
11.503000 0 35D             Rx  d 8 1A 13 AE E3 00 00 C2 41 
11.600000 0 353             Rx  d 8 21 75 DC 03 D0 F4 00 0E 
11.601000 0 351             Rx  d 8 0A 05 12 03 01 4B 00 DA 
11.602000 0 35C             Rx  d 8 06 B3 63 9C 00 00 02 23 
11.603000 0 35D             Rx  d 8 1A 13 BB EC 00 00 02 3F 
11.700000 0 353             Rx  d 8 21 75 DC 03 D0 F4 01 0E 
11.701000 0 351             Rx  d 8 0A 05 12 03 01 57 88 F7 
11.702000 0 35C             Rx  d 8 06 B3 57 E3 00 00 0A 5F 
11.703000 0 35D             Rx  d 8 1A 13 D0 64 00 00 41 D4 
11.800000 0 353             Rx  d 8 21 75 DC 03 D0 F4 02 0E 
11.801000 0 351             Rx  d 8 0A 05 12 03 01 64 10 F5 
11.802000 0 35C             Rx  d 8 06 B3 54 63 00 00 11 DD 
11.803000 0 35D             Rx  d 8 1A 13 D6 80 00 00 81 FE 
11.900000 0 353             Rx  d 8 21 75 DC 03 D0 F4 03 0E 
11.901000 0 351             Rx  d 8 0A 05 12 03 01 70 99 12 
11.902000 0 35C             Rx  d 8 06 B3 4B E7 00 00 1A 59 
11.903000 0 35D             Rx  d 8 1A 13 E5 3E 00 00 C1 D3 
12.000000 0 353             Rx  d 8 21 C5 DC 03 D0 F4 00 0F 
12.001000 0 351             Rx  d 8 0A 05 12 03 02 00 00 90 
12.002000 0 35C             Rx  d 8 06 B3 41 57 00 00 01 BC 
12.003000 0 35D             Rx  d 8 1A 13 F7 FA 00 00 02 89 
12.100000 0 353             Rx  d 8 22 15 DC 03 D0 F4 01 0D 
12.101000 0 351             Rx  d 8 0A 05 12 03 02 0C 88 AD 
12.102000 0 35C             Rx  d 8 06 B3 3A B8 00 00 0A 17 
12.103000 0 35D             Rx  d 8 1A 14 03 7C 00 00 41 20 
12.200000 0 353             Rx  d 8 22 B5 DC 03 D0 F4 02 0F 
12.201000 0 351             Rx  d 8 0A 05 12 03 02 19 10 AB 
12.202000 0 35C             Rx  d 8 06 B3 33 A9 00 00 12 02 
12.203000 0 35D             Rx  d 8 1A 14 0E 93 00 00 81 4A 
12.300000 0 353             Rx  d 8 21 75 DC 03 D0 F4 03 0E 
12.301000 0 351             Rx  d 8 0A 05 12 03 02 25 98 C8 
12.302000 0 35C             Rx  d 8 06 B3 30 30 00 00 19 87 
12.303000 0 35D             Rx  d 8 1A 14 13 86 00 00 C1 4A 
12.400000 0 353             Rx  d 8 21 75 DC 03 D0 F4 00 0E 
12.401000 0 351             Rx  d 8 0A 05 12 03 02 32 00 C2 
12.402000 0 35C             Rx  d 8 06 B3 2C FB 00 00 02 4B 
12.403000 0 35D             Rx  d 8 1A 14 19 39 00 00 00 EB 
12.500000 0 353             Rx  d 8 21 75 DC 03 D0 F4 01 0E 
12.501000 0 351             Rx  d 8 0A 05 12 03 02 3E 88 DF 
12.502000 0 35C             Rx  d 8 06 B3 26 D3 00 00 0A 1E 
12.503000 0 35D             Rx  d 8 1A 14 24 19 00 00 40 DE 
12.600000 0 353             Rx  d 8 21 25 DC 03 D0 F4 02 0D 
12.601000 0 351             Rx  d 8 0A 05 12 03 02 4B 10 DD 
12.602000 0 35C             Rx  d 8 06 B3 21 20 00 00 11 67 
12.603000 0 35D             Rx  d 8 1A 14 2E 19 00 00 80 F0 
12.700000 0 353             Rx  d 8 82 F5 DC 03 D0 F4 03 12 
12.701000 0 351             Rx  d 8 0A 05 12 03 02 57 98 FA 
12.702000 0 35C             Rx  d 8 06 B3 1D 9D 00 00 19 E1 
12.703000 0 35D             Rx  d 8 1A 14 34 E1 00 00 C1 C6 
12.800000 0 353             Rx  d 8 80 25 DC 03 D0 F4 00 0E 
12.801000 0 351             Rx  d 8 0A 05 12 03 02 64 00 F4 
12.802000 0 35C             Rx  d 8 06 B3 22 80 00 00 01 C6 
12.803000 0 35D             Rx  d 8 1A 14 39 68 00 00 01 3A 
12.900000 0 353             Rx  d 8 80 25 DC 03 D0 F4 01 0E 
12.901000 0 351             Rx  d 8 0A 05 12 03 02 70 89 11 
12.902000 0 35C             Rx  d 8 06 B3 2B 8E 00 00 09 DE 
12.903000 0 35D             Rx  d 8 1A 14 3F 6E 00 00 41 4E 
13.000000 0 353             Rx  d 8 80 25 DC 03 D0 F4 02 0E 
13.001000 0 351             Rx  d 8 0A 05 12 03 03 00 10 93 
13.002000 0 35C             Rx  d 8 06 B3 3D E8 00 00 12 4B 
13.003000 0 35D             Rx  d 8 1A 14 4B A3 00 00 81 97 
13.100000 0 353             Rx  d 8 7A 85 DC 03 D0 F4 03 10 
13.101000 0 351             Rx  d 8 0A 05 12 03 03 0C 98 B0 
13.102000 0 35C             Rx  d 8 06 B3 41 38 00 00 19 A0 
13.103000 0 35D             Rx  d 8 1A 14 4D D7 00 00 C1 D5 
13.200000 0 353             Rx  d 8 81 15 DC 03 D0 F4 00 0E 
13.201000 0 351             Rx  d 8 0A 05 12 03 03 19 00 AA 
13.202000 0 35C             Rx  d 8 06 B3 41 8B 00 00 01 F0 
13.203000 0 35D             Rx  d 8 1A 14 4D F4 00 00 01 DA 
13.300000 0 353             Rx  d 8 83 45 DC 03 D0 F4 01 0F 
13.301000 0 351             Rx  d 8 0A 05 12 03 03 25 88 C7 
13.302000 0 35C             Rx  d 8 06 B3 45 92 00 00 09 FC 
13.303000 0 35D             Rx  d 8 1A 14 50 F4 00 00 41 E5 
13.400000 0 353             Rx  d 8 21 75 DC 03 D0 F4 02 0E 
13.401000 0 351             Rx  d 8 0A 05 12 03 03 32 10 C5 
13.402000 0 35C             Rx  d 8 06 B3 48 34 00 00 11 A2 
13.403000 0 35D             Rx  d 8 1A 14 53 70 00 00 81 6C 
13.500000 0 353             Rx  d 8 21 75 DC 03 D0 F4 03 0E 
13.501000 0 351             Rx  d 8 0A 05 12 03 03 3E 98 E2 
13.502000 0 35C             Rx  d 8 06 B3 43 D2 00 00 1A 3C 
13.503000 0 35D             Rx  d 8 1A 14 5B 4B 00 00 C1 57 
13.600000 0 353             Rx  d 8 21 C5 DC 03 D0 F4 00 0F 
13.601000 0 351             Rx  d 8 0A 05 12 03 03 4B 00 DC 
13.602000 0 35C             Rx  d 8 06 B3 41 95 00 00 01 FA 
13.603000 0 35D             Rx  d 8 1A 14 5F 45 00 00 01 3D 
13.700000 0 353             Rx  d 8 21 C5 DC 03 D0 F4 01 0F 
13.701000 0 351             Rx  d 8 0A 05 12 03 03 57 88 F9 
13.702000 0 35C             Rx  d 8 06 B3 3F 25 00 00 09 89 
13.703000 0 35D             Rx  d 8 1A 14 63 5C 00 00 41 60 
13.800000 0 353             Rx  d 8 47 45 DC 03 D0 F4 02 0E 
13.801000 0 351             Rx  d 8 0A 05 12 03 03 64 10 F7 
13.802000 0 35C             Rx  d 8 06 B3 3A D1 00 00 12 31 
13.803000 0 35D             Rx  d 8 1A 14 6A C7 00 00 81 DA 
13.900000 0 353             Rx  d 8 48 D5 DC 03 D0 F4 03 10 
13.901000 0 351             Rx  d 8 0A 05 12 03 03 70 99 14 
13.902000 0 35C             Rx  d 8 06 B3 39 13 00 00 19 73 
13.903000 0 35D             Rx  d 8 1A 14 69 B4 00 00 C1 CE 
14.000000 0 353             Rx  d 8 49 75 DC 03 D0 F4 00 0F 
14.001000 0 351             Rx  d 8 0A 05 12 03 04 00 00 92 
14.002000 0 35C             Rx  d 8 06 B3 38 30 00 00 01 8C 
14.003000 0 35D             Rx  d 8 1A 14 69 0E 00 00 01 10 
14.100000 0 353             Rx  d 8 47 E5 DC 03 D0 F4 01 10 
14.101000 0 351             Rx  d 8 0A 05 12 03 04 0C 88 AF 
14.102000 0 35C             Rx  d 8 06 B3 36 50 00 00 09 AB 
14.103000 0 35D             Rx  d 8 1A 14 67 90 00 00 41 98 
14.200000 0 353             Rx  d 8 47 E5 DC 03 D0 F4 02 10 
14.201000 0 351             Rx  d 8 0A 05 12 03 04 19 10 AD 
14.202000 0 35C             Rx  d 8 06 B3 30 C1 00 00 12 17 
14.203000 0 35D             Rx  d 8 1A 14 63 E5 00 00 81 F1 
